
T0420 000:389 SEGGER J-Link V5.02f Log File (0000ms, 0304ms total)
T0420 000:389 DLL Compiled: Oct  2 2015 20:51:34 (0000ms, 0304ms total)
T0420 000:389 Logging started @ 2018-05-18 11:27 (0000ms, 0304ms total)
T0420 000:389 JLINK_SetWarnOutHandler(...) (0000ms, 0304ms total)
T0420 000:389 JLINK_OpenEx(...)
Firmware: J-Link ARM-OB STM32 compiled Aug 22 2012 19:52:04
Hardware: V7.00
S/N: 305760245
Feature(s): RDI,FlashDL,FlashBP,JFlash,GDBFull  returns O.K. (0297ms, 0601ms total)
T0420 000:686 JLINK_SetErrorOutHandler(...) (0000ms, 0601ms total)
T0420 000:686 JLINK_ExecCommand("ProjectFile = "C:\Users\zhumx\Desktop\±ÕËøÄ£¿é\Emergency Stop Program - kws0515\Emergency Stop Program - kws-518\project\JLinkSettings.ini"", ...)Device "LPC11C14/301" selected.  returns 0x00 (0020ms, 0621ms total)
T0420 000:715 JLINK_ExecCommand("Device = LPC11C14FBD48/301", ...)Device "LPC11C14/301" selected.  returns 0x00 (0007ms, 0628ms total)
T0420 000:722 JLINK_ExecCommand("DisableConnectionTimeout", ...)  returns 0x01 (0000ms, 0628ms total)
T0420 000:722 JLINK_GetHardwareVersion()  returns 0x11170 (0000ms, 0628ms total)
T0420 000:722 JLINK_GetDLLVersion()  returns 50206 (0000ms, 0628ms total)
T0420 000:722 JLINK_GetFirmwareString(...) (0000ms, 0628ms total)
T0420 000:776 JLINK_GetDLLVersion()  returns 50206 (0000ms, 0628ms total)
T0420 000:776 JLINK_GetCompileDateTime() (0000ms, 0628ms total)
T0420 000:783 JLINK_GetFirmwareString(...) (0000ms, 0628ms total)
T0420 000:791 JLINK_GetHardwareVersion()  returns 0x11170 (0000ms, 0628ms total)
T0420 000:823 JLINK_TIF_Select(JLINKARM_TIF_SWD)  returns 0x00 (0001ms, 0629ms total)
T0420 000:824 JLINK_SetSpeed(5000) (0001ms, 0630ms total)
T0420 000:825 JLINK_GetId() >0x108 TIF>Found SWD-DP with ID 0x0BB11477 >0x0D TIF> >0x21 TIF> >0x0D TIF> >0x28 TIF> >0x0D TIF> >0x28 TIF> >0x0D TIF> >0x21 TIF> >0x0D TIF> >0x28 TIF> >0x0D TIF> >0x21 TIF> >0x0D TIF> >0x21 TIF> >0x0D TIF> >0x21 TIF> >0x0D TIF> >0x21 TIF> >0x0D TIF> >0x28 TIF> >0x0D TIF> >0x28 TIF> >0x0D TIF> >0x21 TIF> >0x0D TIF> >0x28 TIF> >0x0D TIF> >0x28 TIF> >0x0D TIF> >0x28 TIF> >0x0D TIF> >0x21 TIF> >0x0D TIF> >0x21 TIF> >0x0D TIF> >0x28 TIF> >0x0D TIF> >0x21 TIF> >0x0D TIF>
 >0x21 TIF>Found Cortex-M0 r0p0, Little endian. -- CPU_ReadMem(4 bytes @ 0xE000EDF0) -- CPU_ReadMem(4 bytes @ 0xE0002000)FPUnit: 4 code (BP) slots and 0 literal slots -- CPU_ReadMem(4 bytes @ 0xE000EDFC) -- CPU_ReadMem(4 bytes @ 0xE0001000) -- CPU_WriteMem(4 bytes @ 0xE0001000)CoreSight components:ROMTbl 0 @ E00FF000 -- CPU_ReadMem(16 bytes @ 0xE00FF000) -- CPU_ReadMem(16 bytes @ 0xE000EFF0) -- CPU_ReadMem(16 bytes @ 0xE000EFE0)ROMTbl 0 [0]: FFF0F000, CID: B105E00D, PID: 000BB008 SCS
 -- CPU_ReadMem(16 bytes @ 0xE0001FF0) -- CPU_ReadMem(16 bytes @ 0xE0001FE0)ROMTbl 0 [1]: FFF02000, CID: B105E00D, PID: 000BB00A DWT -- CPU_ReadMem(16 bytes @ 0xE0002FF0) -- CPU_ReadMem(16 bytes @ 0xE0002FE0)ROMTbl 0 [2]: FFF03000, CID: B105E00D, PID: 000BB00B FPB >0x0D TIF> >0x21 TIF>  returns 0x0BB11477 (0092ms, 0722ms total)
T0420 000:917 JLINK_GetDLLVersion()  returns 50206 (0000ms, 0722ms total)
T0420 000:917 JLINK_CORE_GetFound()  returns 0x60000FF (0000ms, 0722ms total)
T0420 000:917 JLINK_GetDebugInfo(0x100) -- Value=0xE00FF003  returns 0x00 (0000ms, 0722ms total)
T0420 000:924 JLINK_GetDebugInfo(0x100) -- Value=0xE00FF003  returns 0x00 (0000ms, 0722ms total)
T0420 000:924 JLINK_GetDebugInfo(0x101) -- Value=0x00000000  returns 0x00 (0000ms, 0722ms total)
T0420 000:924 JLINK_ReadMem (0xE0041FF0, 0x0010 Bytes, ...) -- CPU is running -- CPU_ReadMem(16 bytes @ 0xE0041FF0) - Data: 00 00 00 00 00 00 00 00 00 00 00 00 00 00 00 00  returns 0x00 (0001ms, 0723ms total)
T0420 000:925 JLINK_GetDebugInfo(0x102) -- Value=0x00000000  returns 0x00 (0000ms, 0723ms total)
T0420 000:925 JLINK_GetDebugInfo(0x103) -- Value=0x00000000  returns 0x00 (0000ms, 0723ms total)
T0420 000:925 JLINK_ReadMem (0xE0040FF0, 0x0010 Bytes, ...) -- CPU is running -- CPU_ReadMem(16 bytes @ 0xE0040FF0) - Data: 00 00 00 00 00 00 00 00 00 00 00 00 00 00 00 00  returns 0x00 (0001ms, 0724ms total)
T0420 000:926 JLINK_GetDebugInfo(0x104) -- Value=0xE0000000  returns 0x00 (0000ms, 0724ms total)
T0420 000:926 JLINK_GetDebugInfo(0x105) -- Value=0xE0001000  returns 0x00 (0000ms, 0724ms total)
T0420 000:926 JLINK_GetDebugInfo(0x106) -- Value=0xE0002000  returns 0x00 (0001ms, 0725ms total)
T0420 000:927 JLINK_GetDebugInfo(0x107) -- Value=0xE000E000  returns 0x00 (0000ms, 0725ms total)
T0420 000:927 JLINK_GetDebugInfo(0x10C) -- Value=0xE000EDF0  returns 0x00 (0000ms, 0725ms total)
T0420 000:927 JLINK_ReadMemU32(0xE000ED00, 0x0001 Items, ...) -- CPU is running -- CPU_ReadMem(4 bytes @ 0xE000ED00) - Data: 00 C2 0C 41  returns 0x01 (0001ms, 0726ms total)
T0420 000:928 JLINK_SetResetType(JLINKARM_RESET_TYPE_NORMAL)  returns JLINKARM_RESET_TYPE_NORMAL (0000ms, 0726ms total)
T0420 000:928 JLINK_Reset() -- CPU is running -- CPU_WriteMem(4 bytes @ 0xE000EDF0) -- CPU is running -- CPU_WriteMem(4 bytes @ 0xE000EDFC) >0x35 TIF> -- CPU is running -- CPU_WriteMem(4 bytes @ 0xE000ED0C) -- CPU is running -- CPU_ReadMem(4 bytes @ 0xE000EDF0) -- CPU is running -- CPU_ReadMem(4 bytes @ 0xE000EDF0) -- CPU is running -- CPU_WriteMem(4 bytes @ 0xE000EDF0) -- CPU is running -- CPU_WriteMem(4 bytes @ 0xE000EDFC) -- CPU is running -- CPU_ReadMem(4 bytes @ 0xE000EDF0)
 -- CPU_WriteMem(4 bytes @ 0xE000EDFC) -- CPU_WriteMem(4 bytes @ 0xE000EDFC) -- CPU_WriteMem(4 bytes @ 0xE000EDFC) -- CPU_WriteMem(4 bytes @ 0xE0001020) -- CPU_WriteMem(4 bytes @ 0xE0001024) -- CPU_WriteMem(4 bytes @ 0xE0001028) -- CPU_ReadMem(4 bytes @ 0xE0001000) -- CPU_WriteMem(4 bytes @ 0xE0001000) -- CPU_WriteMem(4 bytes @ 0xE000EDFC) -- CPU_WriteMem(4 bytes @ 0xE0001028) -- CPU_ReadMem(4 bytes @ 0x00000004) -- CPU_ReadMem(4 bytes @ 0xE0002000) -- CPU_ReadMem(4 bytes @ 0xE0002008)
 -- CPU_ReadMem(4 bytes @ 0xE000200C) -- CPU_ReadMem(4 bytes @ 0xE0002010) -- CPU_ReadMem(4 bytes @ 0xE0002014) -- CPU_WriteMem(4 bytes @ 0xE0002000) -- CPU_WriteMem(4 bytes @ 0xE0002008) -- CPU_WriteMem(4 bytes @ 0xE000200C) -- CPU_WriteMem(4 bytes @ 0xE0002010) -- CPU_WriteMem(4 bytes @ 0xE0002014) -- CPU_ReadMem(4 bytes @ 0xE0001000) -- CPU_WriteMem(4 bytes @ 0xE0001000) -- CPU_WriteMem(4 bytes @ 0xE0002000) -- CPU_WriteMem(4 bytes @ 0xE0002008) -- CPU_WriteMem(4 bytes @ 0xE000200C)
 -- CPU_WriteMem(4 bytes @ 0xE0002010) -- CPU_WriteMem(4 bytes @ 0xE0002014) -- CPU_WriteMem(4 bytes @ 0xE0002000) -- CPU_ReadMem(4 bytes @ 0xE000EDFC) -- CPU_ReadMem(4 bytes @ 0xE0001000) -- CPU_WriteMem(4 bytes @ 0xE0001000) (0264ms, 0990ms total)
T0420 001:193 JLINK_Halt()  returns 0x00 (0000ms, 0991ms total)
T0420 001:194 JLINK_IsHalted()  returns TRUE (0000ms, 0991ms total)
T0420 001:194 JLINK_ReadMemU32(0xE000EDF0, 0x0001 Items, ...) -- CPU_ReadMem(4 bytes @ 0xE000EDF0) - Data: 03 00 03 00  returns 0x01 (0001ms, 0992ms total)
T0420 001:195 JLINK_WriteU32(0xE000EDF0, 0xA05F0003) -- CPU_WriteMem(4 bytes @ 0xE000EDF0)  returns 0x00 (0001ms, 0993ms total)
T0420 001:196 JLINK_WriteU32(0xE000EDFC, 0x01000000) -- CPU_WriteMem(4 bytes @ 0xE000EDFC)  returns 0x00 (0002ms, 0995ms total)
T0420 001:357 JLINK_GetHWStatus(...)  returns 0x00 (0001ms, 0996ms total)
T0420 001:444 JLINK_GetNumBPUnits(Type = 0xFFFFFF00)  returns 0x04 (0000ms, 0996ms total)
T0420 001:444 JLINK_GetNumBPUnits(Type = 0xF0)  returns 0x2000 (0000ms, 0996ms total)
T0420 001:444 JLINK_GetNumWPUnits()  returns 0x02 (0000ms, 0996ms total)
T0420 001:470 JLINK_GetSpeed()  returns 0xFA0 (0000ms, 0996ms total)
T0420 001:488 JLINK_ReadMemU32(0xE000E004, 0x0001 Items, ...) -- CPU_ReadMem(4 bytes @ 0xE000E004) - Data: 00 00 00 00  returns 0x01 (0001ms, 0997ms total)
T0420 001:489 JLINK_Halt()  returns 0x00 (0000ms, 0997ms total)
T0420 001:489 JLINK_IsHalted()  returns TRUE (0000ms, 0997ms total)
T0420 001:498 JLINK_WriteMem(0x10000000, 0x0170 Bytes, ...) - Data: 00 BE 0A E0 0D 78 2D 06 68 40 08 24 40 00 00 D3 ... -- CPU_WriteMem(368 bytes @ 0x10000000)  returns 0x170 (0006ms, 1003ms total)
T0420 001:504 JLINK_WriteReg(R0, 0x00000000)  returns 0x00 (0000ms, 1003ms total)
T0420 001:504 JLINK_WriteReg(R1, 0x00B71B00)  returns 0x00 (0000ms, 1003ms total)
T0420 001:504 JLINK_WriteReg(R2, 0x00000001)  returns 0x00 (0000ms, 1003ms total)
T0420 001:504 JLINK_WriteReg(R3, 0x00000000)  returns 0x00 (0000ms, 1003ms total)
T0420 001:504 JLINK_WriteReg(R4, 0x00000000)  returns 0x00 (0000ms, 1003ms total)
T0420 001:504 JLINK_WriteReg(R5, 0x00000000)  returns 0x00 (0000ms, 1003ms total)
T0420 001:504 JLINK_WriteReg(R6, 0x00000000)  returns 0x00 (0000ms, 1003ms total)
T0420 001:504 JLINK_WriteReg(R7, 0x00000000)  returns 0x00 (0000ms, 1003ms total)
T0420 001:504 JLINK_WriteReg(R8, 0x00000000)  returns 0x00 (0000ms, 1003ms total)
T0420 001:504 JLINK_WriteReg(R9, 0x10000168)  returns 0x00 (0000ms, 1003ms total)
T0420 001:504 JLINK_WriteReg(R10, 0x00000000)  returns 0x00 (0000ms, 1003ms total)
T0420 001:504 JLINK_WriteReg(R11, 0x00000000)  returns 0x00 (0000ms, 1003ms total)
T0420 001:504 JLINK_WriteReg(R12, 0x00000000)  returns 0x00 (0000ms, 1003ms total)
T0420 001:504 JLINK_WriteReg(R13 (SP), 0x10000FE0)  returns 0x00 (0000ms, 1003ms total)
T0420 001:504 JLINK_WriteReg(R14, 0x10000001)  returns 0x00 (0000ms, 1003ms total)
T0420 001:504 JLINK_WriteReg(R15 (PC), 0x1000003C)  returns 0x00 (0000ms, 1003ms total)
T0420 001:504 JLINK_WriteReg(XPSR, 0x01000000)  returns 0x00 (0000ms, 1003ms total)
T0420 001:504 JLINK_WriteReg(MSP, 0x10000FE0)  returns 0x00 (0000ms, 1003ms total)
T0420 001:504 JLINK_WriteReg(PSP, 0x10000FE0)  returns 0x00 (0000ms, 1003ms total)
T0420 001:504 JLINK_WriteReg(CFBP, 0x00000000)  returns 0x00 (0000ms, 1003ms total)
T0420 001:504 JLINK_SetBPEx(Addr = 0x10000000, Type = 0xFFFFFFF2)  returns 0x00000001 (0000ms, 1003ms total)
T0420 001:504 JLINK_Go() -- CPU_WriteMem(4 bytes @ 0xE0002000) -- CPU_ReadMem(4 bytes @ 0xE0001000) -- CPU_WriteMem(4 bytes @ 0xE0001000) -- CPU_WriteMem(4 bytes @ 0xE0002008) -- CPU_WriteMem(4 bytes @ 0xE000200C) -- CPU_WriteMem(4 bytes @ 0xE0002010) -- CPU_WriteMem(4 bytes @ 0xE0002014) -- CPU_WriteMem(4 bytes @ 0xE0001004) (0008ms, 1011ms total)
T0420 001:512 JLINK_IsHalted()  returns TRUE (0004ms, 1015ms total)
T0420 001:516 JLINK_ReadReg(R15 (PC))  returns 0x10000000 (0000ms, 1011ms total)
T0420 001:516 JLINK_ClrBPEx(BPHandle = 0x00000001)  returns 0x00 (0000ms, 1011ms total)
T0420 001:516 JLINK_ReadReg(R0)  returns 0x00000000 (0000ms, 1011ms total)
T0420 001:517 JLINK_WriteReg(R0, 0x00002000)  returns 0x00 (0000ms, 1011ms total)
T0420 001:517 JLINK_WriteReg(R1, 0x00001000)  returns 0x00 (0000ms, 1011ms total)
T0420 001:517 JLINK_WriteReg(R2, 0x000000FF)  returns 0x00 (0000ms, 1011ms total)
T0420 001:517 JLINK_WriteReg(R3, 0x00000000)  returns 0x00 (0000ms, 1011ms total)
T0420 001:517 JLINK_WriteReg(R4, 0x00000000)  returns 0x00 (0000ms, 1011ms total)
T0420 001:517 JLINK_WriteReg(R5, 0x00000000)  returns 0x00 (0000ms, 1011ms total)
T0420 001:517 JLINK_WriteReg(R6, 0x00000000)  returns 0x00 (0000ms, 1011ms total)
T0420 001:517 JLINK_WriteReg(R7, 0x00000000)  returns 0x00 (0000ms, 1011ms total)
T0420 001:517 JLINK_WriteReg(R8, 0x00000000)  returns 0x00 (0000ms, 1011ms total)
T0420 001:517 JLINK_WriteReg(R9, 0x10000168)  returns 0x00 (0000ms, 1011ms total)
T0420 001:517 JLINK_WriteReg(R10, 0x00000000)  returns 0x00 (0000ms, 1011ms total)
T0420 001:517 JLINK_WriteReg(R11, 0x00000000)  returns 0x00 (0000ms, 1011ms total)
T0420 001:517 JLINK_WriteReg(R12, 0x00000000)  returns 0x00 (0000ms, 1011ms total)
T0420 001:517 JLINK_WriteReg(R13 (SP), 0x10000FE0)  returns 0x00 (0000ms, 1011ms total)
T0420 001:517 JLINK_WriteReg(R14, 0x10000001)  returns 0x00 (0000ms, 1011ms total)
T0420 001:517 JLINK_WriteReg(R15 (PC), 0x10000020)  returns 0x00 (0000ms, 1011ms total)
T0420 001:517 JLINK_WriteReg(XPSR, 0x01000000)  returns 0x00 (0000ms, 1011ms total)
T0420 001:517 JLINK_WriteReg(MSP, 0x10000FE0)  returns 0x00 (0000ms, 1011ms total)
T0420 001:517 JLINK_WriteReg(PSP, 0x10000FE0)  returns 0x00 (0000ms, 1011ms total)
T0420 001:517 JLINK_WriteReg(CFBP, 0x00000000)  returns 0x00 (0000ms, 1011ms total)
T0420 001:517 JLINK_SetBPEx(Addr = 0x10000000, Type = 0xFFFFFFF2)  returns 0x00000002 (0000ms, 1011ms total)
T0420 001:517 JLINK_Go() -- CPU_WriteMem(4 bytes @ 0xE0002000) -- CPU_ReadMem(4 bytes @ 0xE0001000) -- CPU_WriteMem(4 bytes @ 0xE0001000) (0006ms, 1017ms total)
T0420 001:523 JLINK_IsHalted()  returns TRUE (0004ms, 1021ms total)
T0420 001:527 JLINK_ReadReg(R15 (PC))  returns 0x10000000 (0000ms, 1017ms total)
T0420 001:527 JLINK_ClrBPEx(BPHandle = 0x00000002)  returns 0x00 (0000ms, 1017ms total)
T0420 001:527 JLINK_ReadReg(R0)  returns 0x00000001 (0000ms, 1017ms total)
T0420 001:527 JLINK_WriteReg(R0, 0x00002000)  returns 0x00 (0000ms, 1017ms total)
T0420 001:527 JLINK_WriteReg(R1, 0x00001000)  returns 0x00 (0000ms, 1017ms total)
T0420 001:527 JLINK_WriteReg(R2, 0x000000FF)  returns 0x00 (0000ms, 1017ms total)
T0420 001:527 JLINK_WriteReg(R3, 0x00000000)  returns 0x00 (0000ms, 1017ms total)
T0420 001:527 JLINK_WriteReg(R4, 0x00000000)  returns 0x00 (0000ms, 1017ms total)
T0420 001:527 JLINK_WriteReg(R5, 0x00000000)  returns 0x00 (0000ms, 1017ms total)
T0420 001:527 JLINK_WriteReg(R6, 0x00000000)  returns 0x00 (0000ms, 1017ms total)
T0420 001:527 JLINK_WriteReg(R7, 0x00000000)  returns 0x00 (0000ms, 1017ms total)
T0420 001:527 JLINK_WriteReg(R8, 0x00000000)  returns 0x00 (0000ms, 1017ms total)
T0420 001:527 JLINK_WriteReg(R9, 0x10000168)  returns 0x00 (0001ms, 1018ms total)
T0420 001:528 JLINK_WriteReg(R10, 0x00000000)  returns 0x00 (0000ms, 1018ms total)
T0420 001:528 JLINK_WriteReg(R11, 0x00000000)  returns 0x00 (0000ms, 1018ms total)
T0420 001:528 JLINK_WriteReg(R12, 0x00000000)  returns 0x00 (0000ms, 1018ms total)
T0420 001:528 JLINK_WriteReg(R13 (SP), 0x10000FE0)  returns 0x00 (0000ms, 1018ms total)
T0420 001:528 JLINK_WriteReg(R14, 0x10000001)  returns 0x00 (0000ms, 1018ms total)
T0420 001:528 JLINK_WriteReg(R15 (PC), 0x100000A4)  returns 0x00 (0000ms, 1018ms total)
T0420 001:528 JLINK_WriteReg(XPSR, 0x01000000)  returns 0x00 (0000ms, 1018ms total)
T0420 001:528 JLINK_WriteReg(MSP, 0x10000FE0)  returns 0x00 (0000ms, 1018ms total)
T0420 001:528 JLINK_WriteReg(PSP, 0x10000FE0)  returns 0x00 (0000ms, 1018ms total)
T0420 001:528 JLINK_WriteReg(CFBP, 0x00000000)  returns 0x00 (0000ms, 1018ms total)
T0420 001:528 JLINK_SetBPEx(Addr = 0x10000000, Type = 0xFFFFFFF2)  returns 0x00000003 (0000ms, 1018ms total)
T0420 001:528 JLINK_Go() -- CPU_WriteMem(4 bytes @ 0xE0002000) -- CPU_ReadMem(4 bytes @ 0xE0001000) -- CPU_WriteMem(4 bytes @ 0xE0001000) (0004ms, 1022ms total)
T0420 001:532 JLINK_IsHalted()  returns FALSE (0001ms, 1023ms total)
T0420 001:597 JLINK_IsHalted()  returns FALSE (0001ms, 1023ms total)
T0420 001:600 JLINK_IsHalted()  returns FALSE (0001ms, 1023ms total)
T0420 001:603 JLINK_IsHalted()  returns FALSE (0000ms, 1022ms total)
T0420 001:605 JLINK_IsHalted()  returns FALSE (0000ms, 1022ms total)
T0420 001:607 JLINK_IsHalted()  returns FALSE (0000ms, 1022ms total)
T0420 001:609 JLINK_IsHalted()  returns FALSE (0000ms, 1022ms total)
T0420 001:611 JLINK_IsHalted()  returns FALSE (0000ms, 1022ms total)
T0420 001:613 JLINK_IsHalted()  returns FALSE (0001ms, 1023ms total)
T0420 001:615 JLINK_IsHalted()  returns FALSE (0001ms, 1023ms total)
T0420 001:617 JLINK_IsHalted()  returns FALSE (0001ms, 1023ms total)
T0420 001:620 JLINK_IsHalted()  returns FALSE (0000ms, 1022ms total)
T0420 001:622 JLINK_IsHalted()  returns FALSE (0000ms, 1022ms total)
T0420 001:624 JLINK_IsHalted()  returns FALSE (0001ms, 1023ms total)
T0420 001:627 JLINK_IsHalted()  returns FALSE (0001ms, 1023ms total)
T0420 001:630 JLINK_IsHalted()  returns FALSE (0001ms, 1023ms total)
T0420 001:633 JLINK_IsHalted()  returns TRUE (0004ms, 1026ms total)
T0420 001:637 JLINK_ReadReg(R15 (PC))  returns 0x10000000 (0000ms, 1022ms total)
T0420 001:637 JLINK_ClrBPEx(BPHandle = 0x00000003)  returns 0x00 (0000ms, 1022ms total)
T0420 001:637 JLINK_ReadReg(R0)  returns 0x00000000 (0000ms, 1022ms total)
T0420 001:639 JLINK_WriteReg(R0, 0x00003000)  returns 0x00 (0000ms, 1022ms total)
T0420 001:639 JLINK_WriteReg(R1, 0x00001000)  returns 0x00 (0001ms, 1023ms total)
T0420 001:640 JLINK_WriteReg(R2, 0x000000FF)  returns 0x00 (0000ms, 1023ms total)
T0420 001:640 JLINK_WriteReg(R3, 0x00000000)  returns 0x00 (0000ms, 1023ms total)
T0420 001:640 JLINK_WriteReg(R4, 0x00000000)  returns 0x00 (0000ms, 1023ms total)
T0420 001:640 JLINK_WriteReg(R5, 0x00000000)  returns 0x00 (0000ms, 1023ms total)
T0420 001:640 JLINK_WriteReg(R6, 0x00000000)  returns 0x00 (0000ms, 1023ms total)
T0420 001:640 JLINK_WriteReg(R7, 0x00000000)  returns 0x00 (0000ms, 1023ms total)
T0420 001:640 JLINK_WriteReg(R8, 0x00000000)  returns 0x00 (0000ms, 1023ms total)
T0420 001:640 JLINK_WriteReg(R9, 0x10000168)  returns 0x00 (0000ms, 1023ms total)
T0420 001:640 JLINK_WriteReg(R10, 0x00000000)  returns 0x00 (0000ms, 1023ms total)
T0420 001:640 JLINK_WriteReg(R11, 0x00000000)  returns 0x00 (0000ms, 1023ms total)
T0420 001:640 JLINK_WriteReg(R12, 0x00000000)  returns 0x00 (0000ms, 1023ms total)
T0420 001:640 JLINK_WriteReg(R13 (SP), 0x10000FE0)  returns 0x00 (0000ms, 1023ms total)
T0420 001:640 JLINK_WriteReg(R14, 0x10000001)  returns 0x00 (0000ms, 1023ms total)
T0420 001:640 JLINK_WriteReg(R15 (PC), 0x10000020)  returns 0x00 (0000ms, 1023ms total)
T0420 001:640 JLINK_WriteReg(XPSR, 0x01000000)  returns 0x00 (0000ms, 1023ms total)
T0420 001:640 JLINK_WriteReg(MSP, 0x10000FE0)  returns 0x00 (0000ms, 1023ms total)
T0420 001:640 JLINK_WriteReg(PSP, 0x10000FE0)  returns 0x00 (0000ms, 1023ms total)
T0420 001:640 JLINK_WriteReg(CFBP, 0x00000000)  returns 0x00 (0000ms, 1023ms total)
T0420 001:640 JLINK_SetBPEx(Addr = 0x10000000, Type = 0xFFFFFFF2)  returns 0x00000004 (0000ms, 1023ms total)
T0420 001:640 JLINK_Go() -- CPU_WriteMem(4 bytes @ 0xE0002000) -- CPU_ReadMem(4 bytes @ 0xE0001000) -- CPU_WriteMem(4 bytes @ 0xE0001000) (0005ms, 1028ms total)
T0420 001:645 JLINK_IsHalted()  returns TRUE (0004ms, 1032ms total)
T0420 001:649 JLINK_ReadReg(R15 (PC))  returns 0x10000000 (0000ms, 1028ms total)
T0420 001:649 JLINK_ClrBPEx(BPHandle = 0x00000004)  returns 0x00 (0000ms, 1028ms total)
T0420 001:649 JLINK_ReadReg(R0)  returns 0x00000001 (0000ms, 1028ms total)
T0420 001:649 JLINK_WriteReg(R0, 0x00003000)  returns 0x00 (0000ms, 1028ms total)
T0420 001:649 JLINK_WriteReg(R1, 0x00001000)  returns 0x00 (0000ms, 1028ms total)
T0420 001:649 JLINK_WriteReg(R2, 0x000000FF)  returns 0x00 (0000ms, 1028ms total)
T0420 001:649 JLINK_WriteReg(R3, 0x00000000)  returns 0x00 (0000ms, 1028ms total)
T0420 001:649 JLINK_WriteReg(R4, 0x00000000)  returns 0x00 (0000ms, 1028ms total)
T0420 001:649 JLINK_WriteReg(R5, 0x00000000)  returns 0x00 (0000ms, 1028ms total)
T0420 001:649 JLINK_WriteReg(R6, 0x00000000)  returns 0x00 (0000ms, 1028ms total)
T0420 001:649 JLINK_WriteReg(R7, 0x00000000)  returns 0x00 (0000ms, 1028ms total)
T0420 001:649 JLINK_WriteReg(R8, 0x00000000)  returns 0x00 (0000ms, 1028ms total)
T0420 001:649 JLINK_WriteReg(R9, 0x10000168)  returns 0x00 (0000ms, 1028ms total)
T0420 001:649 JLINK_WriteReg(R10, 0x00000000)  returns 0x00 (0000ms, 1028ms total)
T0420 001:649 JLINK_WriteReg(R11, 0x00000000)  returns 0x00 (0000ms, 1028ms total)
T0420 001:649 JLINK_WriteReg(R12, 0x00000000)  returns 0x00 (0000ms, 1028ms total)
T0420 001:649 JLINK_WriteReg(R13 (SP), 0x10000FE0)  returns 0x00 (0000ms, 1028ms total)
T0420 001:649 JLINK_WriteReg(R14, 0x10000001)  returns 0x00 (0000ms, 1028ms total)
T0420 001:649 JLINK_WriteReg(R15 (PC), 0x100000A4)  returns 0x00 (0000ms, 1028ms total)
T0420 001:649 JLINK_WriteReg(XPSR, 0x01000000)  returns 0x00 (0000ms, 1028ms total)
T0420 001:649 JLINK_WriteReg(MSP, 0x10000FE0)  returns 0x00 (0000ms, 1028ms total)
T0420 001:649 JLINK_WriteReg(PSP, 0x10000FE0)  returns 0x00 (0000ms, 1028ms total)
T0420 001:649 JLINK_WriteReg(CFBP, 0x00000000)  returns 0x00 (0000ms, 1028ms total)
T0420 001:649 JLINK_SetBPEx(Addr = 0x10000000, Type = 0xFFFFFFF2)  returns 0x00000005 (0000ms, 1028ms total)
T0420 001:649 JLINK_Go() -- CPU_WriteMem(4 bytes @ 0xE0002000) -- CPU_ReadMem(4 bytes @ 0xE0001000) -- CPU_WriteMem(4 bytes @ 0xE0001000) (0006ms, 1034ms total)
T0420 001:655 JLINK_IsHalted()  returns FALSE (0001ms, 1035ms total)
T0420 001:660 JLINK_IsHalted()  returns FALSE (0001ms, 1035ms total)
T0420 001:663 JLINK_IsHalted()  returns FALSE (0001ms, 1035ms total)
T0420 001:665 JLINK_IsHalted()  returns FALSE (0001ms, 1035ms total)
T0420 001:668 JLINK_IsHalted()  returns FALSE (0001ms, 1035ms total)
T0420 001:671 JLINK_IsHalted()  returns FALSE (0001ms, 1035ms total)
T0420 001:673 JLINK_IsHalted()  returns FALSE (0001ms, 1035ms total)
T0420 001:676 JLINK_IsHalted()  returns FALSE (0002ms, 1036ms total)
T0420 001:680 JLINK_IsHalted()  returns FALSE (0000ms, 1034ms total)
T0420 001:682 JLINK_IsHalted()  returns FALSE (0000ms, 1034ms total)
T0420 001:684 JLINK_IsHalted()  returns FALSE (0000ms, 1034ms total)
T0420 001:686 JLINK_IsHalted()  returns FALSE (0000ms, 1034ms total)
T0420 001:688 JLINK_IsHalted()  returns FALSE (0001ms, 1035ms total)
T0420 001:690 JLINK_IsHalted()  returns FALSE (0000ms, 1034ms total)
T0420 001:692 JLINK_IsHalted()  returns FALSE (0001ms, 1035ms total)
T0420 001:694 JLINK_IsHalted()  returns FALSE (0000ms, 1034ms total)
T0420 001:696 JLINK_IsHalted()  returns FALSE (0000ms, 1034ms total)
T0420 001:698 JLINK_IsHalted()  returns FALSE (0000ms, 1034ms total)
T0420 001:700 JLINK_IsHalted()  returns FALSE (0001ms, 1035ms total)
T0420 001:703 JLINK_IsHalted()  returns FALSE (0002ms, 1036ms total)
T0420 001:707 JLINK_IsHalted()  returns FALSE (0001ms, 1035ms total)
T0420 001:710 JLINK_IsHalted()  returns FALSE (0000ms, 1034ms total)
T0420 001:712 JLINK_IsHalted()  returns FALSE (0000ms, 1034ms total)
T0420 001:714 JLINK_IsHalted()  returns FALSE (0000ms, 1034ms total)
T0420 001:719 JLINK_IsHalted()  returns FALSE (0000ms, 1034ms total)
T0420 001:722 JLINK_IsHalted()  returns FALSE (0000ms, 1034ms total)
T0420 001:723 JLINK_IsHalted()  returns FALSE (0000ms, 1034ms total)
T0420 001:725 JLINK_IsHalted()  returns FALSE (0000ms, 1034ms total)
T0420 001:727 JLINK_IsHalted()  returns FALSE (0000ms, 1034ms total)
T0420 001:729 JLINK_IsHalted()  returns FALSE (0000ms, 1034ms total)
T0420 001:732 JLINK_IsHalted()  returns FALSE (0000ms, 1034ms total)
T0420 001:734 JLINK_IsHalted()  returns FALSE (0001ms, 1035ms total)
T0420 001:737 JLINK_IsHalted()  returns FALSE (0001ms, 1035ms total)
T0420 001:740 JLINK_IsHalted()  returns FALSE (0001ms, 1035ms total)
T0420 001:743 JLINK_IsHalted()  returns FALSE (0000ms, 1034ms total)
T0420 001:745 JLINK_IsHalted()  returns FALSE (0000ms, 1034ms total)
T0420 001:752 JLINK_IsHalted()  returns FALSE (0000ms, 1034ms total)
T0420 001:754 JLINK_IsHalted()  returns FALSE (0000ms, 1034ms total)
T0420 001:756 JLINK_IsHalted()  returns TRUE (0003ms, 1037ms total)
T0420 001:759 JLINK_ReadReg(R15 (PC))  returns 0x10000000 (0000ms, 1034ms total)
T0420 001:759 JLINK_ClrBPEx(BPHandle = 0x00000005)  returns 0x00 (0000ms, 1034ms total)
T0420 001:759 JLINK_ReadReg(R0)  returns 0x00000000 (0000ms, 1034ms total)
T0420 001:760 JLINK_WriteReg(R0, 0x00004000)  returns 0x00 (0001ms, 1035ms total)
T0420 001:761 JLINK_WriteReg(R1, 0x00001000)  returns 0x00 (0000ms, 1035ms total)
T0420 001:761 JLINK_WriteReg(R2, 0x000000FF)  returns 0x00 (0000ms, 1035ms total)
T0420 001:761 JLINK_WriteReg(R3, 0x00000000)  returns 0x00 (0000ms, 1035ms total)
T0420 001:761 JLINK_WriteReg(R4, 0x00000000)  returns 0x00 (0000ms, 1035ms total)
T0420 001:761 JLINK_WriteReg(R5, 0x00000000)  returns 0x00 (0000ms, 1035ms total)
T0420 001:761 JLINK_WriteReg(R6, 0x00000000)  returns 0x00 (0000ms, 1035ms total)
T0420 001:761 JLINK_WriteReg(R7, 0x00000000)  returns 0x00 (0000ms, 1035ms total)
T0420 001:761 JLINK_WriteReg(R8, 0x00000000)  returns 0x00 (0000ms, 1035ms total)
T0420 001:761 JLINK_WriteReg(R9, 0x10000168)  returns 0x00 (0000ms, 1035ms total)
T0420 001:761 JLINK_WriteReg(R10, 0x00000000)  returns 0x00 (0000ms, 1035ms total)
T0420 001:761 JLINK_WriteReg(R11, 0x00000000)  returns 0x00 (0000ms, 1035ms total)
T0420 001:761 JLINK_WriteReg(R12, 0x00000000)  returns 0x00 (0000ms, 1035ms total)
T0420 001:761 JLINK_WriteReg(R13 (SP), 0x10000FE0)  returns 0x00 (0000ms, 1035ms total)
T0420 001:761 JLINK_WriteReg(R14, 0x10000001)  returns 0x00 (0000ms, 1035ms total)
T0420 001:761 JLINK_WriteReg(R15 (PC), 0x10000020)  returns 0x00 (0000ms, 1035ms total)
T0420 001:761 JLINK_WriteReg(XPSR, 0x01000000)  returns 0x00 (0000ms, 1035ms total)
T0420 001:761 JLINK_WriteReg(MSP, 0x10000FE0)  returns 0x00 (0000ms, 1035ms total)
T0420 001:761 JLINK_WriteReg(PSP, 0x10000FE0)  returns 0x00 (0000ms, 1035ms total)
T0420 001:761 JLINK_WriteReg(CFBP, 0x00000000)  returns 0x00 (0000ms, 1035ms total)
T0420 001:761 JLINK_SetBPEx(Addr = 0x10000000, Type = 0xFFFFFFF2)  returns 0x00000006 (0001ms, 1036ms total)
T0420 001:762 JLINK_Go() -- CPU_WriteMem(4 bytes @ 0xE0002000) -- CPU_ReadMem(4 bytes @ 0xE0001000) -- CPU_WriteMem(4 bytes @ 0xE0001000) (0004ms, 1040ms total)
T0420 001:766 JLINK_IsHalted()  returns TRUE (0004ms, 1044ms total)
T0420 001:770 JLINK_ReadReg(R15 (PC))  returns 0x10000000 (0000ms, 1040ms total)
T0420 001:770 JLINK_ClrBPEx(BPHandle = 0x00000006)  returns 0x00 (0000ms, 1040ms total)
T0420 001:770 JLINK_ReadReg(R0)  returns 0x00000001 (0000ms, 1040ms total)
T0420 001:770 JLINK_WriteReg(R0, 0x00004000)  returns 0x00 (0000ms, 1040ms total)
T0420 001:770 JLINK_WriteReg(R1, 0x00001000)  returns 0x00 (0000ms, 1040ms total)
T0420 001:770 JLINK_WriteReg(R2, 0x000000FF)  returns 0x00 (0000ms, 1040ms total)
T0420 001:770 JLINK_WriteReg(R3, 0x00000000)  returns 0x00 (0000ms, 1040ms total)
T0420 001:770 JLINK_WriteReg(R4, 0x00000000)  returns 0x00 (0000ms, 1040ms total)
T0420 001:770 JLINK_WriteReg(R5, 0x00000000)  returns 0x00 (0000ms, 1040ms total)
T0420 001:770 JLINK_WriteReg(R6, 0x00000000)  returns 0x00 (0000ms, 1040ms total)
T0420 001:770 JLINK_WriteReg(R7, 0x00000000)  returns 0x00 (0000ms, 1040ms total)
T0420 001:770 JLINK_WriteReg(R8, 0x00000000)  returns 0x00 (0001ms, 1041ms total)
T0420 001:771 JLINK_WriteReg(R9, 0x10000168)  returns 0x00 (0000ms, 1041ms total)
T0420 001:771 JLINK_WriteReg(R10, 0x00000000)  returns 0x00 (0000ms, 1041ms total)
T0420 001:771 JLINK_WriteReg(R11, 0x00000000)  returns 0x00 (0000ms, 1041ms total)
T0420 001:771 JLINK_WriteReg(R12, 0x00000000)  returns 0x00 (0000ms, 1041ms total)
T0420 001:771 JLINK_WriteReg(R13 (SP), 0x10000FE0)  returns 0x00 (0000ms, 1041ms total)
T0420 001:771 JLINK_WriteReg(R14, 0x10000001)  returns 0x00 (0000ms, 1041ms total)
T0420 001:771 JLINK_WriteReg(R15 (PC), 0x100000A4)  returns 0x00 (0000ms, 1041ms total)
T0420 001:771 JLINK_WriteReg(XPSR, 0x01000000)  returns 0x00 (0000ms, 1041ms total)
T0420 001:771 JLINK_WriteReg(MSP, 0x10000FE0)  returns 0x00 (0000ms, 1041ms total)
T0420 001:771 JLINK_WriteReg(PSP, 0x10000FE0)  returns 0x00 (0000ms, 1041ms total)
T0420 001:771 JLINK_WriteReg(CFBP, 0x00000000)  returns 0x00 (0000ms, 1041ms total)
T0420 001:771 JLINK_SetBPEx(Addr = 0x10000000, Type = 0xFFFFFFF2)  returns 0x00000007 (0000ms, 1041ms total)
T0420 001:771 JLINK_Go() -- CPU_WriteMem(4 bytes @ 0xE0002000) -- CPU_ReadMem(4 bytes @ 0xE0001000) -- CPU_WriteMem(4 bytes @ 0xE0001000) (0004ms, 1045ms total)
T0420 001:775 JLINK_IsHalted()  returns FALSE (0001ms, 1046ms total)
T0420 001:780 JLINK_IsHalted()  returns FALSE (0001ms, 1046ms total)
T0420 001:783 JLINK_IsHalted()  returns FALSE (0000ms, 1045ms total)
T0420 001:785 JLINK_IsHalted()  returns FALSE (0001ms, 1046ms total)
T0420 001:788 JLINK_IsHalted()  returns FALSE (0001ms, 1046ms total)
T0420 001:790 JLINK_IsHalted()  returns FALSE (0000ms, 1045ms total)
T0420 001:792 JLINK_IsHalted()  returns FALSE (0000ms, 1045ms total)
T0420 001:794 JLINK_IsHalted()  returns FALSE (0000ms, 1045ms total)
T0420 001:796 JLINK_IsHalted()  returns FALSE (0001ms, 1046ms total)
T0420 001:799 JLINK_IsHalted()  returns FALSE (0001ms, 1046ms total)
T0420 001:802 JLINK_IsHalted()  returns FALSE (0000ms, 1045ms total)
T0420 001:804 JLINK_IsHalted()  returns FALSE (0000ms, 1045ms total)
T0420 001:806 JLINK_IsHalted()  returns FALSE (0000ms, 1045ms total)
T0420 001:809 JLINK_IsHalted()  returns FALSE (0000ms, 1045ms total)
T0420 001:811 JLINK_IsHalted()  returns FALSE (0000ms, 1045ms total)
T0420 001:813 JLINK_IsHalted()  returns FALSE (0001ms, 1046ms total)
T0420 001:816 JLINK_IsHalted()  returns FALSE (0000ms, 1045ms total)
T0420 001:818 JLINK_IsHalted()  returns FALSE (0001ms, 1046ms total)
T0420 001:821 JLINK_IsHalted()  returns FALSE (0000ms, 1045ms total)
T0420 001:823 JLINK_IsHalted()  returns FALSE (0001ms, 1046ms total)
T0420 001:825 JLINK_IsHalted()  returns FALSE (0001ms, 1046ms total)
T0420 001:827 JLINK_IsHalted()  returns FALSE (0001ms, 1046ms total)
T0420 001:829 JLINK_IsHalted()  returns FALSE (0001ms, 1046ms total)
T0420 001:832 JLINK_IsHalted()  returns FALSE (0001ms, 1046ms total)
T0420 001:834 JLINK_IsHalted()  returns FALSE (0001ms, 1046ms total)
T0420 001:837 JLINK_IsHalted()  returns FALSE (0001ms, 1046ms total)
T0420 001:839 JLINK_IsHalted()  returns FALSE (0001ms, 1046ms total)
T0420 001:842 JLINK_IsHalted()  returns FALSE (0000ms, 1045ms total)
T0420 001:846 JLINK_IsHalted()  returns FALSE (0001ms, 1046ms total)
T0420 001:849 JLINK_IsHalted()  returns FALSE (0000ms, 1045ms total)
T0420 001:851 JLINK_IsHalted()  returns FALSE (0000ms, 1045ms total)
T0420 001:853 JLINK_IsHalted()  returns FALSE (0000ms, 1045ms total)
T0420 001:855 JLINK_IsHalted()  returns FALSE (0000ms, 1045ms total)
T0420 001:860 JLINK_IsHalted()  returns FALSE (0000ms, 1045ms total)
T0420 001:862 JLINK_IsHalted()  returns FALSE (0000ms, 1045ms total)
T0420 001:864 JLINK_IsHalted()  returns FALSE (0001ms, 1046ms total)
T0420 001:867 JLINK_IsHalted()  returns FALSE (0001ms, 1046ms total)
T0420 001:870 JLINK_IsHalted()  returns FALSE (0000ms, 1045ms total)
T0420 001:872 JLINK_IsHalted()  returns FALSE (0000ms, 1045ms total)
T0420 001:874 JLINK_IsHalted()  returns FALSE (0001ms, 1046ms total)
T0420 001:877 JLINK_IsHalted()  returns TRUE (0004ms, 1049ms total)
T0420 001:881 JLINK_ReadReg(R15 (PC))  returns 0x10000000 (0000ms, 1045ms total)
T0420 001:881 JLINK_ClrBPEx(BPHandle = 0x00000007)  returns 0x00 (0000ms, 1045ms total)
T0420 001:881 JLINK_ReadReg(R0)  returns 0x00000000 (0000ms, 1045ms total)
T0420 001:882 JLINK_WriteReg(R0, 0x00005000)  returns 0x00 (0000ms, 1045ms total)
T0420 001:882 JLINK_WriteReg(R1, 0x00001000)  returns 0x00 (0000ms, 1045ms total)
T0420 001:882 JLINK_WriteReg(R2, 0x000000FF)  returns 0x00 (0000ms, 1045ms total)
T0420 001:882 JLINK_WriteReg(R3, 0x00000000)  returns 0x00 (0000ms, 1045ms total)
T0420 001:882 JLINK_WriteReg(R4, 0x00000000)  returns 0x00 (0000ms, 1045ms total)
T0420 001:882 JLINK_WriteReg(R5, 0x00000000)  returns 0x00 (0001ms, 1046ms total)
T0420 001:883 JLINK_WriteReg(R6, 0x00000000)  returns 0x00 (0000ms, 1046ms total)
T0420 001:883 JLINK_WriteReg(R7, 0x00000000)  returns 0x00 (0000ms, 1046ms total)
T0420 001:883 JLINK_WriteReg(R8, 0x00000000)  returns 0x00 (0000ms, 1046ms total)
T0420 001:883 JLINK_WriteReg(R9, 0x10000168)  returns 0x00 (0000ms, 1046ms total)
T0420 001:883 JLINK_WriteReg(R10, 0x00000000)  returns 0x00 (0000ms, 1046ms total)
T0420 001:883 JLINK_WriteReg(R11, 0x00000000)  returns 0x00 (0000ms, 1046ms total)
T0420 001:883 JLINK_WriteReg(R12, 0x00000000)  returns 0x00 (0000ms, 1046ms total)
T0420 001:883 JLINK_WriteReg(R13 (SP), 0x10000FE0)  returns 0x00 (0000ms, 1046ms total)
T0420 001:883 JLINK_WriteReg(R14, 0x10000001)  returns 0x00 (0000ms, 1046ms total)
T0420 001:883 JLINK_WriteReg(R15 (PC), 0x10000020)  returns 0x00 (0000ms, 1046ms total)
T0420 001:883 JLINK_WriteReg(XPSR, 0x01000000)  returns 0x00 (0000ms, 1046ms total)
T0420 001:883 JLINK_WriteReg(MSP, 0x10000FE0)  returns 0x00 (0000ms, 1046ms total)
T0420 001:883 JLINK_WriteReg(PSP, 0x10000FE0)  returns 0x00 (0000ms, 1046ms total)
T0420 001:883 JLINK_WriteReg(CFBP, 0x00000000)  returns 0x00 (0000ms, 1046ms total)
T0420 001:883 JLINK_SetBPEx(Addr = 0x10000000, Type = 0xFFFFFFF2)  returns 0x00000008 (0000ms, 1046ms total)
T0420 001:883 JLINK_Go() -- CPU_WriteMem(4 bytes @ 0xE0002000) -- CPU_ReadMem(4 bytes @ 0xE0001000) -- CPU_WriteMem(4 bytes @ 0xE0001000) (0006ms, 1052ms total)
T0420 001:889 JLINK_IsHalted()  returns TRUE (0004ms, 1056ms total)
T0420 001:893 JLINK_ReadReg(R15 (PC))  returns 0x10000000 (0000ms, 1052ms total)
T0420 001:893 JLINK_ClrBPEx(BPHandle = 0x00000008)  returns 0x00 (0000ms, 1052ms total)
T0420 001:893 JLINK_ReadReg(R0)  returns 0x00000001 (0000ms, 1052ms total)
T0420 001:893 JLINK_WriteReg(R0, 0x00005000)  returns 0x00 (0000ms, 1052ms total)
T0420 001:893 JLINK_WriteReg(R1, 0x00001000)  returns 0x00 (0000ms, 1052ms total)
T0420 001:893 JLINK_WriteReg(R2, 0x000000FF)  returns 0x00 (0000ms, 1052ms total)
T0420 001:893 JLINK_WriteReg(R3, 0x00000000)  returns 0x00 (0000ms, 1052ms total)
T0420 001:893 JLINK_WriteReg(R4, 0x00000000)  returns 0x00 (0000ms, 1052ms total)
T0420 001:893 JLINK_WriteReg(R5, 0x00000000)  returns 0x00 (0000ms, 1052ms total)
T0420 001:893 JLINK_WriteReg(R6, 0x00000000)  returns 0x00 (0000ms, 1052ms total)
T0420 001:893 JLINK_WriteReg(R7, 0x00000000)  returns 0x00 (0000ms, 1052ms total)
T0420 001:893 JLINK_WriteReg(R8, 0x00000000)  returns 0x00 (0000ms, 1052ms total)
T0420 001:893 JLINK_WriteReg(R9, 0x10000168)  returns 0x00 (0000ms, 1052ms total)
T0420 001:893 JLINK_WriteReg(R10, 0x00000000)  returns 0x00 (0000ms, 1052ms total)
T0420 001:893 JLINK_WriteReg(R11, 0x00000000)  returns 0x00 (0001ms, 1053ms total)
T0420 001:894 JLINK_WriteReg(R12, 0x00000000)  returns 0x00 (0000ms, 1053ms total)
T0420 001:894 JLINK_WriteReg(R13 (SP), 0x10000FE0)  returns 0x00 (0000ms, 1053ms total)
T0420 001:894 JLINK_WriteReg(R14, 0x10000001)  returns 0x00 (0000ms, 1053ms total)
T0420 001:894 JLINK_WriteReg(R15 (PC), 0x100000A4)  returns 0x00 (0000ms, 1053ms total)
T0420 001:894 JLINK_WriteReg(XPSR, 0x01000000)  returns 0x00 (0000ms, 1053ms total)
T0420 001:894 JLINK_WriteReg(MSP, 0x10000FE0)  returns 0x00 (0000ms, 1053ms total)
T0420 001:894 JLINK_WriteReg(PSP, 0x10000FE0)  returns 0x00 (0000ms, 1053ms total)
T0420 001:894 JLINK_WriteReg(CFBP, 0x00000000)  returns 0x00 (0000ms, 1053ms total)
T0420 001:894 JLINK_SetBPEx(Addr = 0x10000000, Type = 0xFFFFFFF2)  returns 0x00000009 (0000ms, 1053ms total)
T0420 001:894 JLINK_Go() -- CPU_WriteMem(4 bytes @ 0xE0002000) -- CPU_ReadMem(4 bytes @ 0xE0001000) -- CPU_WriteMem(4 bytes @ 0xE0001000) (0005ms, 1058ms total)
T0420 001:899 JLINK_IsHalted()  returns FALSE (0002ms, 1060ms total)
T0420 001:903 JLINK_IsHalted()  returns FALSE (0000ms, 1058ms total)
T0420 001:909 JLINK_IsHalted()  returns FALSE (0001ms, 1059ms total)
T0420 001:912 JLINK_IsHalted()  returns FALSE (0000ms, 1058ms total)
T0420 001:914 JLINK_IsHalted()  returns FALSE (0001ms, 1059ms total)
T0420 001:917 JLINK_IsHalted()  returns FALSE (0000ms, 1058ms total)
T0420 001:919 JLINK_IsHalted()  returns FALSE (0000ms, 1058ms total)
T0420 001:921 JLINK_IsHalted()  returns FALSE (0001ms, 1059ms total)
T0420 001:924 JLINK_IsHalted()  returns FALSE (0001ms, 1059ms total)
T0420 001:927 JLINK_IsHalted()  returns FALSE (0001ms, 1059ms total)
T0420 001:930 JLINK_IsHalted()  returns FALSE (0001ms, 1059ms total)
T0420 001:933 JLINK_IsHalted()  returns FALSE (0000ms, 1058ms total)
T0420 001:939 JLINK_IsHalted()  returns FALSE (0001ms, 1059ms total)
T0420 001:942 JLINK_IsHalted()  returns FALSE (0001ms, 1059ms total)
T0420 001:945 JLINK_IsHalted()  returns FALSE (0001ms, 1059ms total)
T0420 001:947 JLINK_IsHalted()  returns FALSE (0001ms, 1059ms total)
T0420 001:949 JLINK_IsHalted()  returns FALSE (0001ms, 1059ms total)
T0420 001:952 JLINK_IsHalted()  returns FALSE (0001ms, 1059ms total)
T0420 001:955 JLINK_IsHalted()  returns FALSE (0001ms, 1059ms total)
T0420 001:958 JLINK_IsHalted()  returns FALSE (0001ms, 1059ms total)
T0420 001:961 JLINK_IsHalted()  returns FALSE (0001ms, 1059ms total)
T0420 001:964 JLINK_IsHalted()  returns FALSE (0000ms, 1058ms total)
T0420 001:974 JLINK_IsHalted()  returns FALSE (0001ms, 1059ms total)
T0420 001:977 JLINK_IsHalted()  returns FALSE (0001ms, 1059ms total)
T0420 001:980 JLINK_IsHalted()  returns FALSE (0000ms, 1058ms total)
T0420 001:982 JLINK_IsHalted()  returns FALSE (0001ms, 1059ms total)
T0420 001:984 JLINK_IsHalted()  returns FALSE (0001ms, 1059ms total)
T0420 001:987 JLINK_IsHalted()  returns FALSE (0001ms, 1059ms total)
T0420 001:990 JLINK_IsHalted()  returns FALSE (0001ms, 1059ms total)
T0420 001:993 JLINK_IsHalted()  returns FALSE (0000ms, 1058ms total)
T0420 001:995 JLINK_IsHalted()  returns FALSE (0000ms, 1058ms total)
T0420 001:997 JLINK_IsHalted()  returns FALSE (0000ms, 1058ms total)
T0420 001:999 JLINK_IsHalted()  returns TRUE (0004ms, 1062ms total)
T0420 002:003 JLINK_ReadReg(R15 (PC))  returns 0x10000000 (0000ms, 1058ms total)
T0420 002:003 JLINK_ClrBPEx(BPHandle = 0x00000009)  returns 0x00 (0000ms, 1058ms total)
T0420 002:003 JLINK_ReadReg(R0)  returns 0x00000000 (0000ms, 1058ms total)
T0420 002:005 JLINK_WriteReg(R0, 0x00006000)  returns 0x00 (0000ms, 1058ms total)
T0420 002:005 JLINK_WriteReg(R1, 0x00001000)  returns 0x00 (0000ms, 1058ms total)
T0420 002:005 JLINK_WriteReg(R2, 0x000000FF)  returns 0x00 (0000ms, 1058ms total)
T0420 002:005 JLINK_WriteReg(R3, 0x00000000)  returns 0x00 (0000ms, 1058ms total)
T0420 002:005 JLINK_WriteReg(R4, 0x00000000)  returns 0x00 (0001ms, 1059ms total)
T0420 002:006 JLINK_WriteReg(R5, 0x00000000)  returns 0x00 (0000ms, 1059ms total)
T0420 002:006 JLINK_WriteReg(R6, 0x00000000)  returns 0x00 (0000ms, 1059ms total)
T0420 002:006 JLINK_WriteReg(R7, 0x00000000)  returns 0x00 (0000ms, 1059ms total)
T0420 002:006 JLINK_WriteReg(R8, 0x00000000)  returns 0x00 (0000ms, 1059ms total)
T0420 002:006 JLINK_WriteReg(R9, 0x10000168)  returns 0x00 (0000ms, 1059ms total)
T0420 002:006 JLINK_WriteReg(R10, 0x00000000)  returns 0x00 (0000ms, 1059ms total)
T0420 002:006 JLINK_WriteReg(R11, 0x00000000)  returns 0x00 (0000ms, 1059ms total)
T0420 002:006 JLINK_WriteReg(R12, 0x00000000)  returns 0x00 (0000ms, 1059ms total)
T0420 002:006 JLINK_WriteReg(R13 (SP), 0x10000FE0)  returns 0x00 (0000ms, 1059ms total)
T0420 002:006 JLINK_WriteReg(R14, 0x10000001)  returns 0x00 (0000ms, 1059ms total)
T0420 002:006 JLINK_WriteReg(R15 (PC), 0x10000020)  returns 0x00 (0000ms, 1059ms total)
T0420 002:006 JLINK_WriteReg(XPSR, 0x01000000)  returns 0x00 (0001ms, 1060ms total)
T0420 002:007 JLINK_WriteReg(MSP, 0x10000FE0)  returns 0x00 (0000ms, 1060ms total)
T0420 002:007 JLINK_WriteReg(PSP, 0x10000FE0)  returns 0x00 (0000ms, 1060ms total)
T0420 002:007 JLINK_WriteReg(CFBP, 0x00000000)  returns 0x00 (0000ms, 1060ms total)
T0420 002:007 JLINK_SetBPEx(Addr = 0x10000000, Type = 0xFFFFFFF2)  returns 0x0000000A (0000ms, 1060ms total)
T0420 002:007 JLINK_Go() -- CPU_WriteMem(4 bytes @ 0xE0002000) -- CPU_ReadMem(4 bytes @ 0xE0001000) -- CPU_WriteMem(4 bytes @ 0xE0001000) (0005ms, 1065ms total)
T0420 002:012 JLINK_IsHalted()  returns TRUE (0004ms, 1069ms total)
T0420 002:016 JLINK_ReadReg(R15 (PC))  returns 0x10000000 (0000ms, 1065ms total)
T0420 002:016 JLINK_ClrBPEx(BPHandle = 0x0000000A)  returns 0x00 (0000ms, 1065ms total)
T0420 002:016 JLINK_ReadReg(R0)  returns 0x00000001 (0000ms, 1065ms total)
T0420 002:016 JLINK_WriteReg(R0, 0x00006000)  returns 0x00 (0000ms, 1065ms total)
T0420 002:016 JLINK_WriteReg(R1, 0x00001000)  returns 0x00 (0000ms, 1065ms total)
T0420 002:016 JLINK_WriteReg(R2, 0x000000FF)  returns 0x00 (0000ms, 1065ms total)
T0420 002:016 JLINK_WriteReg(R3, 0x00000000)  returns 0x00 (0000ms, 1065ms total)
T0420 002:016 JLINK_WriteReg(R4, 0x00000000)  returns 0x00 (0000ms, 1065ms total)
T0420 002:017 JLINK_WriteReg(R5, 0x00000000)  returns 0x00 (0000ms, 1066ms total)
T0420 002:017 JLINK_WriteReg(R6, 0x00000000)  returns 0x00 (0000ms, 1066ms total)
T0420 002:017 JLINK_WriteReg(R7, 0x00000000)  returns 0x00 (0000ms, 1066ms total)
T0420 002:017 JLINK_WriteReg(R8, 0x00000000)  returns 0x00 (0000ms, 1066ms total)
T0420 002:017 JLINK_WriteReg(R9, 0x10000168)  returns 0x00 (0000ms, 1066ms total)
T0420 002:017 JLINK_WriteReg(R10, 0x00000000)  returns 0x00 (0000ms, 1066ms total)
T0420 002:017 JLINK_WriteReg(R11, 0x00000000)  returns 0x00 (0000ms, 1066ms total)
T0420 002:017 JLINK_WriteReg(R12, 0x00000000)  returns 0x00 (0000ms, 1066ms total)
T0420 002:017 JLINK_WriteReg(R13 (SP), 0x10000FE0)  returns 0x00 (0000ms, 1066ms total)
T0420 002:017 JLINK_WriteReg(R14, 0x10000001)  returns 0x00 (0000ms, 1066ms total)
T0420 002:017 JLINK_WriteReg(R15 (PC), 0x100000A4)  returns 0x00 (0001ms, 1067ms total)
T0420 002:018 JLINK_WriteReg(XPSR, 0x01000000)  returns 0x00 (0000ms, 1067ms total)
T0420 002:018 JLINK_WriteReg(MSP, 0x10000FE0)  returns 0x00 (0000ms, 1067ms total)
T0420 002:018 JLINK_WriteReg(PSP, 0x10000FE0)  returns 0x00 (0000ms, 1067ms total)
T0420 002:018 JLINK_WriteReg(CFBP, 0x00000000)  returns 0x00 (0000ms, 1067ms total)
T0420 002:018 JLINK_SetBPEx(Addr = 0x10000000, Type = 0xFFFFFFF2)  returns 0x0000000B (0000ms, 1067ms total)
T0420 002:018 JLINK_Go() -- CPU_WriteMem(4 bytes @ 0xE0002000) -- CPU_ReadMem(4 bytes @ 0xE0001000) -- CPU_WriteMem(4 bytes @ 0xE0001000) (0005ms, 1072ms total)
T0420 002:024 JLINK_IsHalted()  returns FALSE (0001ms, 1074ms total)
T0420 002:027 JLINK_IsHalted()  returns FALSE (0001ms, 1074ms total)
T0420 002:030 JLINK_IsHalted()  returns FALSE (0001ms, 1074ms total)
T0420 002:033 JLINK_IsHalted()  returns FALSE (0001ms, 1074ms total)
T0420 002:036 JLINK_IsHalted()  returns FALSE (0001ms, 1074ms total)
T0420 002:039 JLINK_IsHalted()  returns FALSE (0000ms, 1073ms total)
T0420 002:041 JLINK_IsHalted()  returns FALSE (0000ms, 1073ms total)
T0420 002:043 JLINK_IsHalted()  returns FALSE (0000ms, 1073ms total)
T0420 002:045 JLINK_IsHalted()  returns FALSE (0000ms, 1073ms total)
T0420 002:047 JLINK_IsHalted()  returns FALSE (0000ms, 1073ms total)
T0420 002:049 JLINK_IsHalted()  returns FALSE (0000ms, 1073ms total)
T0420 002:051 JLINK_IsHalted()  returns FALSE (0000ms, 1073ms total)
T0420 002:053 JLINK_IsHalted()  returns FALSE (0000ms, 1073ms total)
T0420 002:055 JLINK_IsHalted()  returns FALSE (0000ms, 1073ms total)
T0420 002:057 JLINK_IsHalted()  returns FALSE (0000ms, 1073ms total)
T0420 002:059 JLINK_IsHalted()  returns FALSE (0000ms, 1073ms total)
T0420 002:061 JLINK_IsHalted()  returns FALSE (0000ms, 1073ms total)
T0420 002:063 JLINK_IsHalted()  returns FALSE (0000ms, 1073ms total)
T0420 002:065 JLINK_IsHalted()  returns FALSE (0000ms, 1073ms total)
T0420 002:067 JLINK_IsHalted()  returns FALSE (0000ms, 1073ms total)
T0420 002:069 JLINK_IsHalted()  returns FALSE (0000ms, 1073ms total)
T0420 002:071 JLINK_IsHalted()  returns FALSE (0000ms, 1073ms total)
T0420 002:073 JLINK_IsHalted()  returns FALSE (0000ms, 1073ms total)
T0420 002:082 JLINK_IsHalted()  returns FALSE (0001ms, 1074ms total)
T0420 002:085 JLINK_IsHalted()  returns FALSE (0001ms, 1074ms total)
T0420 002:088 JLINK_IsHalted()  returns FALSE (0001ms, 1074ms total)
T0420 002:091 JLINK_IsHalted()  returns FALSE (0001ms, 1074ms total)
T0420 002:093 JLINK_IsHalted()  returns FALSE (0000ms, 1073ms total)
T0420 002:096 JLINK_IsHalted()  returns FALSE (0001ms, 1074ms total)
T0420 002:099 JLINK_IsHalted()  returns FALSE (0001ms, 1074ms total)
T0420 002:102 JLINK_IsHalted()  returns FALSE (0001ms, 1074ms total)
T0420 002:104 JLINK_IsHalted()  returns FALSE (0001ms, 1074ms total)
T0420 002:107 JLINK_IsHalted()  returns FALSE (0000ms, 1073ms total)
T0420 002:109 JLINK_IsHalted()  returns FALSE (0001ms, 1074ms total)
T0420 002:112 JLINK_IsHalted()  returns FALSE (0001ms, 1074ms total)
T0420 002:115 JLINK_IsHalted()  returns FALSE (0001ms, 1074ms total)
T0420 002:118 JLINK_IsHalted()  returns FALSE (0000ms, 1073ms total)
T0420 002:120 JLINK_IsHalted()  returns FALSE (0000ms, 1073ms total)
T0420 002:122 JLINK_IsHalted()  returns FALSE (0000ms, 1073ms total)
T0420 002:124 JLINK_IsHalted()  returns FALSE (0000ms, 1073ms total)
T0420 002:126 JLINK_IsHalted()  returns TRUE (0003ms, 1076ms total)
T0420 002:129 JLINK_ReadReg(R15 (PC))  returns 0x10000000 (0000ms, 1073ms total)
T0420 002:129 JLINK_ClrBPEx(BPHandle = 0x0000000B)  returns 0x00 (0000ms, 1073ms total)
T0420 002:129 JLINK_ReadReg(R0)  returns 0x00000000 (0000ms, 1073ms total)
T0420 002:130 JLINK_WriteReg(R0, 0x00000001)  returns 0x00 (0000ms, 1073ms total)
T0420 002:130 JLINK_WriteReg(R1, 0x00001000)  returns 0x00 (0000ms, 1073ms total)
T0420 002:130 JLINK_WriteReg(R2, 0x000000FF)  returns 0x00 (0000ms, 1073ms total)
T0420 002:130 JLINK_WriteReg(R3, 0x00000000)  returns 0x00 (0000ms, 1073ms total)
T0420 002:130 JLINK_WriteReg(R4, 0x00000000)  returns 0x00 (0000ms, 1073ms total)
T0420 002:130 JLINK_WriteReg(R5, 0x00000000)  returns 0x00 (0000ms, 1073ms total)
T0420 002:130 JLINK_WriteReg(R6, 0x00000000)  returns 0x00 (0000ms, 1073ms total)
T0420 002:130 JLINK_WriteReg(R7, 0x00000000)  returns 0x00 (0000ms, 1073ms total)
T0420 002:130 JLINK_WriteReg(R8, 0x00000000)  returns 0x00 (0000ms, 1073ms total)
T0420 002:130 JLINK_WriteReg(R9, 0x10000168)  returns 0x00 (0000ms, 1073ms total)
T0420 002:130 JLINK_WriteReg(R10, 0x00000000)  returns 0x00 (0000ms, 1073ms total)
T0420 002:130 JLINK_WriteReg(R11, 0x00000000)  returns 0x00 (0000ms, 1073ms total)
T0420 002:130 JLINK_WriteReg(R12, 0x00000000)  returns 0x00 (0000ms, 1073ms total)
T0420 002:130 JLINK_WriteReg(R13 (SP), 0x10000FE0)  returns 0x00 (0000ms, 1073ms total)
T0420 002:130 JLINK_WriteReg(R14, 0x10000001)  returns 0x00 (0000ms, 1073ms total)
T0420 002:130 JLINK_WriteReg(R15 (PC), 0x10000060)  returns 0x00 (0000ms, 1073ms total)
T0420 002:130 JLINK_WriteReg(XPSR, 0x01000000)  returns 0x00 (0000ms, 1073ms total)
T0420 002:130 JLINK_WriteReg(MSP, 0x10000FE0)  returns 0x00 (0001ms, 1074ms total)
T0420 002:131 JLINK_WriteReg(PSP, 0x10000FE0)  returns 0x00 (0000ms, 1074ms total)
T0420 002:131 JLINK_WriteReg(CFBP, 0x00000000)  returns 0x00 (0000ms, 1074ms total)
T0420 002:131 JLINK_SetBPEx(Addr = 0x10000000, Type = 0xFFFFFFF2)  returns 0x0000000C (0000ms, 1074ms total)
T0420 002:131 JLINK_Go() -- CPU_WriteMem(4 bytes @ 0xE0002000) -- CPU_ReadMem(4 bytes @ 0xE0001000) -- CPU_WriteMem(4 bytes @ 0xE0001000) (0006ms, 1080ms total)
T0420 002:137 JLINK_IsHalted()  returns TRUE (0004ms, 1084ms total)
T0420 002:141 JLINK_ReadReg(R15 (PC))  returns 0x10000000 (0000ms, 1080ms total)
T0420 002:141 JLINK_ClrBPEx(BPHandle = 0x0000000C)  returns 0x00 (0000ms, 1080ms total)
T0420 002:141 JLINK_ReadReg(R0)  returns 0x00000000 (0000ms, 1080ms total)
T0420 002:263 JLINK_WriteMem(0x10000000, 0x0170 Bytes, ...) - Data: 00 BE 0A E0 0D 78 2D 06 68 40 08 24 40 00 00 D3 ... -- CPU_WriteMem(368 bytes @ 0x10000000)  returns 0x170 (0007ms, 1087ms total)
T0420 002:270 JLINK_WriteReg(R0, 0x00000000)  returns 0x00 (0000ms, 1087ms total)
T0420 002:270 JLINK_WriteReg(R1, 0x00B71B00)  returns 0x00 (0000ms, 1087ms total)
T0420 002:270 JLINK_WriteReg(R2, 0x00000002)  returns 0x00 (0000ms, 1087ms total)
T0420 002:270 JLINK_WriteReg(R3, 0x00000000)  returns 0x00 (0001ms, 1088ms total)
T0420 002:271 JLINK_WriteReg(R4, 0x00000000)  returns 0x00 (0000ms, 1088ms total)
T0420 002:271 JLINK_WriteReg(R5, 0x00000000)  returns 0x00 (0000ms, 1088ms total)
T0420 002:271 JLINK_WriteReg(R6, 0x00000000)  returns 0x00 (0000ms, 1088ms total)
T0420 002:271 JLINK_WriteReg(R7, 0x00000000)  returns 0x00 (0000ms, 1088ms total)
T0420 002:271 JLINK_WriteReg(R8, 0x00000000)  returns 0x00 (0000ms, 1088ms total)
T0420 002:271 JLINK_WriteReg(R9, 0x10000168)  returns 0x00 (0000ms, 1088ms total)
T0420 002:271 JLINK_WriteReg(R10, 0x00000000)  returns 0x00 (0001ms, 1089ms total)
T0420 002:272 JLINK_WriteReg(R11, 0x00000000)  returns 0x00 (0000ms, 1089ms total)
T0420 002:272 JLINK_WriteReg(R12, 0x00000000)  returns 0x00 (0000ms, 1089ms total)
T0420 002:272 JLINK_WriteReg(R13 (SP), 0x10000FE0)  returns 0x00 (0000ms, 1089ms total)
T0420 002:272 JLINK_WriteReg(R14, 0x10000001)  returns 0x00 (0000ms, 1089ms total)
T0420 002:272 JLINK_WriteReg(R15 (PC), 0x1000003C)  returns 0x00 (0000ms, 1089ms total)
T0420 002:272 JLINK_WriteReg(XPSR, 0x01000000)  returns 0x00 (0000ms, 1089ms total)
T0420 002:273 JLINK_WriteReg(MSP, 0x10000FE0)  returns 0x00 (0000ms, 1090ms total)
T0420 002:273 JLINK_WriteReg(PSP, 0x10000FE0)  returns 0x00 (0000ms, 1090ms total)
T0420 002:273 JLINK_WriteReg(CFBP, 0x00000000)  returns 0x00 (0000ms, 1090ms total)
T0420 002:273 JLINK_SetBPEx(Addr = 0x10000000, Type = 0xFFFFFFF2)  returns 0x0000000D (0000ms, 1090ms total)
T0420 002:273 JLINK_Go() -- CPU_WriteMem(4 bytes @ 0xE0002000) -- CPU_ReadMem(4 bytes @ 0xE0001000) -- CPU_WriteMem(4 bytes @ 0xE0001000) (0007ms, 1097ms total)
T0420 002:280 JLINK_IsHalted()  returns TRUE (0004ms, 1101ms total)
T0420 002:284 JLINK_ReadReg(R15 (PC))  returns 0x10000000 (0000ms, 1097ms total)
T0420 002:284 JLINK_ClrBPEx(BPHandle = 0x0000000D)  returns 0x00 (0000ms, 1097ms total)
T0420 002:284 JLINK_ReadReg(R0)  returns 0x00000000 (0001ms, 1098ms total)
T0420 002:286 JLINK_WriteMem(0x10000190, 0x0270 Bytes, ...) - Data: A8 07 00 10 B5 21 00 00 BD 21 00 00 C1 38 00 00 ... -- CPU_WriteMem(624 bytes @ 0x10000190)  returns 0x270 (0009ms, 1107ms total)
T0420 002:295 JLINK_WriteMem(0x10000400, 0x0190 Bytes, ...) - Data: 28 46 A1 68 90 47 20 6A 40 1C CF E7 20 6A F8 BD ... -- CPU_WriteMem(400 bytes @ 0x10000400)  returns 0x190 (0006ms, 1113ms total)
T0420 002:301 JLINK_WriteReg(R0, 0x00002000)  returns 0x00 (0001ms, 1114ms total)
T0420 002:302 JLINK_WriteReg(R1, 0x00000400)  returns 0x00 (0000ms, 1114ms total)
T0420 002:302 JLINK_WriteReg(R2, 0x10000190)  returns 0x00 (0000ms, 1114ms total)
T0420 002:302 JLINK_WriteReg(R3, 0x00000000)  returns 0x00 (0000ms, 1114ms total)
T0420 002:302 JLINK_WriteReg(R4, 0x00000000)  returns 0x00 (0000ms, 1114ms total)
T0420 002:302 JLINK_WriteReg(R5, 0x00000000)  returns 0x00 (0000ms, 1114ms total)
T0420 002:302 JLINK_WriteReg(R6, 0x00000000)  returns 0x00 (0001ms, 1115ms total)
